(1543689805.746901) can0 000#0100
(1543689805.874340) can0 080#00
(1543689805.874519) can0 181#0800B2BFFEFF0000
(1543689805.874784) can0 281#19C8000000000000
(1543689805.874979) can0 381#E8FF1A67CAFF
(1543689805.875205) can0 481#000005C8FDFFFF
(1543689806.010702) can0 080#00
(1543689806.011032) can0 181#0800AFBFFEFF0000
(1543689806.011166) can0 281#19C8000000000000
(1543689806.011342) can0 381#E8FF7AF5CAFF
(1543689806.011570) can0 481#00000596000000
(1543689806.145185) can0 080#00
(1543689806.145612) can0 181#0800ECBFFEFF0000
(1543689806.145848) can0 281#19C8000000000000
(1543689806.146047) can0 381#E5FFBA18CAFF
(1543689806.146278) can0 481#000005BBFFFFFF
(1543689806.283640) can0 080#00
(1543689806.283901) can0 181#080029C0FEFF0000
(1543689806.284118) can0 281#19C8000000000000
(1543689806.284310) can0 381#E9FFBA18DAFF
(1543689806.284533) can0 481#00000587010000
(1543689806.423110) can0 080#00
(1543689806.423305) can0 181#0800B0BFFEFF0000
(1543689806.423527) can0 281#19C8000000000000
(1543689806.423743) can0 381#E6FF7AF5BAFF
(1543689806.423940) can0 481#0000054FFBFFFF
(1543689806.560022) can0 080#00
(1543689806.560201) can0 181#0800E9BFFEFF0000
(1543689806.560466) can0 281#19C8000000000000
(1543689806.560658) can0 381#E7FFBA36CAFF
(1543689806.560884) can0 481#0000056AFFFFFF
(1543689806.699103) can0 080#00
(1543689806.700248) can0 181#080027C0FEFF0000
(1543689806.700452) can0 281#19C8000000000000
(1543689806.700652) can0 381#E7FFBA36CAFF
(1543689806.700904) can0 481#00000550FFFFFF
(1543689806.836086) can0 080#00
(1543689806.836266) can0 181#080027C0FEFF0000
(1543689806.836526) can0 281#19C8000000000000
(1543689806.836725) can0 381#E7FFBA36CAFF
(1543689806.836948) can0 481#00000550FFFFFF
(1543689806.977516) can0 080#00
(1543689806.977715) can0 181#080028C0FEFF0000
(1543689806.977947) can0 281#19C8000000000000
(1543689806.978132) can0 381#E8FFBA18CAFF
(1543689806.978358) can0 481#0000056AFFFFFF
(1543689807.114604) can0 080#00
(1543689807.114800) can0 181#080028C0FEFF0000
(1543689807.115052) can0 281#19C8000000000000
(1543689807.115241) can0 381#E9FFBA36BAFF
(1543689807.115469) can0 481#000005F8050000
(1543689807.254697) can0 080#00
(1543689807.255030) can0 181#0800AFBFFEFF0000
(1543689807.255153) can0 281#19C8000000000000
(1543689807.255347) can0 381#E7FF1A2BBAFF
(1543689807.255577) can0 481#00000596000000
(1543689807.392263) can0 080#00
(1543689807.392460) can0 181#0800B0BFFEFF0000
(1543689807.392707) can0 281#19C8000000000000
(1543689807.392898) can0 381#E8FFBA36CAFF
(1543689807.393128) can0 481#00000500000000
(1543689807.531156) can0 080#00
(1543689807.531351) can0 181#080074BFFEFF0000
(1543689807.531601) can0 281#19C8000000000000
(1543689807.531792) can0 381#E8FF7AF5BAFF
(1543689807.532015) can0 481#000005BAFEFFFF
(1543689807.669968) can0 080#00
(1543689807.670198) can0 181#080074BFFEFF0000
(1543689807.670634) can0 281#19C8000000000000
(1543689807.670665) can0 381#E8FFBA18DAFF
(1543689807.670880) can0 481#00000596000000
(1543689807.808755) can0 080#00
(1543689807.809452) can0 181#080038BFFEFF0000
(1543689807.809698) can0 281#19C8000000000000
(1543689807.809967) can0 381#E8FFBA18CAFF
(1543689807.810117) can0 481#00000500E2FFFF
(1543689807.946438) can0 080#00
(1543689807.946618) can0 181#080075BFFEFF0000
(1543689807.946879) can0 281#19C8000000000000
(1543689807.947072) can0 381#E7FFBA36CAFF
(1543689807.947306) can0 481#00000500000000
(1543689808.086320) can0 080#00
(1543689808.086517) can0 181#080073BFFEFF0000
(1543689808.086760) can0 281#19C8000000000000
(1543689808.086950) can0 381#E8FFBA18CAFF
(1543689808.087176) can0 481#0000056AFFFFFF
(1543689808.225346) can0 080#00
(1543689808.225544) can0 181#080074BFFEFF0000
(1543689808.225790) can0 281#19C8000000000000
(1543689808.225978) can0 381#E8FFBA18CAFF
(1543689808.226202) can0 481#000005B0000000
(1543689808.364515) can0 080#00
(1543689808.364704) can0 181#0800B1BFFEFF0000
(1543689808.364929) can0 281#19C8000000000000
(1543689808.365120) can0 381#E6FF1AA7BAFF
(1543689808.365342) can0 481#0000058B010000
(1543689808.503295) can0 080#00
(1543689808.505249) can0 181#0800EBBFFEFF0000
(1543689808.505445) can0 281#19C8000000000000
(1543689808.505475) can0 381#E4FFBA36CAFF
(1543689808.505500) can0 481#000005B0000000
(1543689808.641905) can0 080#00
(1543689808.642085) can0 181#0800EBBFFEFF0000
(1543689808.642344) can0 281#19C8000000000000
(1543689808.642565) can0 381#E8FFBA18CAFF
(1543689808.642767) can0 481#00000500000000
(1543689808.779949) can0 080#00
(1543689808.780133) can0 181#0800EBBFFEFF0000
(1543689808.780386) can0 281#19C8000000000000
(1543689808.780573) can0 381#E8FF7AF5CAFF
(1543689808.780804) can0 481#00000525FFFFFF
(1543689808.916752) can0 080#00
(1543689808.916947) can0 181#0800ECBFFEFF0000
(1543689808.917197) can0 281#19C8000000000000
(1543689808.917386) can0 381#E6FFBA36CAFF
(1543689808.917614) can0 481#00000500000000
(1543689809.056505) can0 080#00
(1543689809.056685) can0 181#0800ECBFFEFF0000
(1543689809.056988) can0 281#19C8000000000000
(1543689809.057146) can0 381#E6FFBA36CAFF
(1543689809.057374) can0 481#00000500000000
(1543689809.196408) can0 080#00
(1543689809.196587) can0 181#0800EDBFFEFF0000
(1543689809.196834) can0 281#19C8000000000000
(1543689809.197021) can0 381#E7FF7AF5CAFF
(1543689809.197242) can0 481#00000546010000
(1543689809.334203) can0 080#00
(1543689809.334381) can0 181#080028C0FEFF0000
(1543689809.334630) can0 281#19C8000000000000
(1543689809.334819) can0 381#E7FF7AF5CAFF
(1543689809.335039) can0 481#00000567000000
(1543689809.471825) can0 080#00
(1543689809.473760) can0 181#080029C0FEFF0000
(1543689809.473936) can0 281#19C8000000000000
(1543689809.473980) can0 381#E7FF7AF5CAFF
(1543689809.474009) can0 481#0000056AFFFFFF
(1543689809.611209) can0 080#00
(1543689809.611388) can0 181#080028C0FEFF0000
(1543689809.611619) can0 281#19C8000000000000
(1543689809.611811) can0 381#E9FF1A2BCAFF
(1543689809.612032) can0 481#000005BAFEFFFF
(1543689809.750140) can0 080#00
(1543689809.750320) can0 181#080028C0FEFF0000
(1543689809.750604) can0 281#19C8000000000000
(1543689809.750763) can0 381#E8FF9A44CAFF
(1543689809.750993) can0 481#000005E7FEFFFF
(1543689809.888335) can0 080#00
(1543689809.888528) can0 181#080029C0FEFF0000
(1543689809.888784) can0 281#19C8000000000000
(1543689809.888977) can0 381#E9FFBA36CAFF
(1543689809.889202) can0 481#0000056AFFFFFF
(1543689810.026558) can0 080#00
(1543689810.027803) can0 181#080028C0FEFF0000
(1543689810.028035) can0 281#19C8000000000000
(1543689810.028237) can0 381#E8FFBA36CAFF
(1543689810.028466) can0 481#00000549000000
(1543689810.164099) can0 080#00
(1543689810.164276) can0 181#080029C0FEFF0000
(1543689810.164542) can0 281#19C8000000000000
(1543689810.164734) can0 381#E7FFBA36CAFF
(1543689810.164956) can0 481#000005BAFEFFFF
(1543689810.304357) can0 080#00
(1543689810.304552) can0 181#080027C0FEFF0000
(1543689810.304804) can0 281#19C8000000000000
(1543689810.304993) can0 381#E8FF1A67CAFF
(1543689810.305219) can0 481#000005ABFEFFFF
(1543689810.443407) can0 080#00
(1543689810.443603) can0 181#080028C0FEFF0000
(1543689810.443823) can0 281#19C8000000000000
(1543689810.444020) can0 381#E7FFBA18CAFF
(1543689810.444243) can0 481#000005E7010000
(1543689810.582221) can0 080#00
(1543689810.582418) can0 181#080028C0FEFF0000
(1543689810.582656) can0 281#19C8000000000000
(1543689810.582850) can0 381#E7FF1A2BBAFF
(1543689810.583078) can0 481#00000500000000
(1543689810.724845) can0 080#00
(1543689810.725043) can0 181#080028C0FEFF0000
(1543689810.725333) can0 281#19C8000000000000
(1543689810.725499) can0 381#E8FF7AF5CAFF
(1543689810.725691) can0 481#00000546010000
(1543689810.865775) can0 080#00
(1543689810.865969) can0 181#080027C0FEFF0000
(1543689810.866221) can0 281#19C8000000000000
(1543689810.866409) can0 381#E6FF7AF5CAFF
(1543689810.866655) can0 481#000005B0000000
(1543689811.006455) can0 080#00
(1543689811.006635) can0 181#0800ECBFFEFF0000
(1543689811.006900) can0 281#19C8000000000000
(1543689811.007092) can0 381#E7FFBA36BAFF
(1543689811.007318) can0 481#00000578010000
(1543689811.147867) can0 080#00
(1543689811.148044) can0 181#0800B0BFFEFF0000
(1543689811.148304) can0 281#19C8000000000000
(1543689811.148496) can0 381#E7FF9A44CAFF
(1543689811.148722) can0 481#00000546010000
(1543689811.288660) can0 080#00
(1543689811.288792) can0 181#0800B1BFFEFF0000
(1543689811.289065) can0 281#19C8000000000000
(1543689811.289250) can0 381#E6FFBA36DAFF
(1543689811.289482) can0 481#00000500000000
(1543689811.425947) can0 080#00
(1543689811.426128) can0 181#0800AFBFFEFF0000
(1543689811.426390) can0 281#19C8000000000000
(1543689811.426608) can0 381#E7FF1AA7BAFF
(1543689811.426819) can0 481#000005B0000000
(1543689811.564473) can0 080#00
(1543689811.564653) can0 181#0800B1BFFEFF0000
(1543689811.564916) can0 281#19C8000000000000
(1543689811.565115) can0 381#E7FFBA18CAFF
(1543689811.565339) can0 481#00000579FEFFFF
(1543689811.706428) can0 080#00
(1543689811.707256) can0 181#0800AFBFFEFF0000
(1543689811.707474) can0 281#19C8000000000000
(1543689811.707673) can0 381#E9FFBA18CAFF
(1543689811.707896) can0 481#00000546010000
(1543689811.845839) can0 080#00
(1543689811.846018) can0 181#0800AFBFFEFF0000
(1543689811.846285) can0 281#19C8000000000000
(1543689811.846566) can0 381#E7FF9A44CAFF
(1543689811.846701) can0 481#000005B0000000
(1543689811.984064) can0 080#00
(1543689811.984404) can0 181#0800B0BFFEFF0000
(1543689811.984528) can0 281#19C8000000000000
(1543689811.984722) can0 381#E9FF5AEBCAFF
(1543689811.984950) can0 481#00000596000000
(1543689812.124164) can0 080#00
(1543689812.124381) can0 181#0800AFBFFEFF0000
(1543689812.124641) can0 281#19C8000000000000
(1543689812.124886) can0 381#E8FF7AF5CAFF
(1543689812.125076) can0 481#00000550FFFFFF
(1543689812.262355) can0 080#00
(1543689812.262551) can0 181#0800AFBFFEFF0000
(1543689812.262806) can0 281#19C8000000000000
(1543689812.262991) can0 381#E8FFBA18BAFF
(1543689812.263220) can0 481#00000500000000
(1543689812.401637) can0 080#00
(1543689812.402580) can0 181#0800ECBFFEFF0000
(1543689812.402651) can0 281#19C8000000000000
(1543689812.402870) can0 381#E7FFBA36CAFF
(1543689812.403098) can0 481#00000500000000
(1543689812.542380) can0 080#00
(1543689812.543028) can0 181#0800EBBFFEFF0000
(1543689812.543273) can0 281#19C8000000000000
(1543689812.543471) can0 381#E7FF1A2BCAFF
(1543689812.543698) can0 481#0000056AFFFFFF
(1543689812.681550) can0 080#00
(1543689812.681737) can0 181#0800ECBFFEFF0000
(1543689812.681983) can0 281#19C8000000000000
(1543689812.682176) can0 381#E7FF1A67CAFF
(1543689812.682407) can0 481#00000596000000
(1543689812.822644) can0 080#00
(1543689812.824577) can0 181#0800ECBFFEFF0000
(1543689812.824753) can0 281#19C8000000000000
(1543689812.824798) can0 381#E9FF7AF5CAFF
(1543689812.824828) can0 481#0000050FFFFFFF
(1543689812.962833) can0 080#00
(1543689812.963012) can0 181#0800EBBFFEFF0000
(1543689812.963262) can0 281#19C8000000000000
(1543689812.963453) can0 381#E7FF7AF5CAFF
(1543689812.963676) can0 481#00000587010000
(1543689813.102233) can0 080#00
(1543689813.102571) can0 181#0800C9BFFEFF0000
(1543689813.102747) can0 281#19C8000000000000
(1543689813.102912) can0 381#E8FFBA18CAFF
(1543689813.103119) can0 481#00000516F9FFFF
(1543689813.244455) can0 080#00
(1543689813.246012) can0 181#0800EDBFFEFF0000
(1543689813.246227) can0 281#19C8000000000000
(1543689813.246537) can0 381#E9FFBA36CAFF
(1543689813.246661) can0 481#000005B0000000
(1543689813.386681) can0 080#00
(1543689813.386862) can0 181#0800E7BFFEFF0000
(1543689813.387122) can0 281#19C8000000000000
(1543689813.387314) can0 381#E8FFBA18CAFF
(1543689813.387537) can0 481#000005BAFEFFFF
(1543689813.526640) can0 080#00
(1543689813.527239) can0 181#0800EDBFFEFF0000
(1543689813.527480) can0 281#19C8000000000000
(1543689813.527683) can0 381#E7FFBA18DAFF
(1543689813.527971) can0 481#00000500000000
(1543689813.667975) can0 080#00
(1543689813.668199) can0 181#08002BC0FEFF0000
(1543689813.668455) can0 281#19C8000000000000
(1543689813.668650) can0 381#E5FFBA18CAFF
(1543689813.668880) can0 481#00000500000000
(1543689813.807421) can0 080#00
(1543689813.808452) can0 181#080027C0FEFF0000
(1543689813.808692) can0 281#19C8000000000000
(1543689813.808897) can0 381#E7FF9A44CAFF
(1543689813.809127) can0 481#00000500000000
(1543689813.946566) can0 080#00
(1543689813.946747) can0 181#080027C0FEFF0000
(1543689813.946991) can0 281#19C8000000000000
(1543689813.947184) can0 381#E6FFBA36CAFF
(1543689813.947409) can0 481#0000055EFEFFFF
(1543689814.086392) can0 080#00
(1543689814.086572) can0 181#080028C0FEFF0000
(1543689814.086840) can0 281#19C8000000000000
(1543689814.087029) can0 381#E7FFBA36CAFF
(1543689814.087251) can0 481#00000550FFFFFF
(1543689814.225734) can0 080#00
(1543689814.225913) can0 181#0800EDBFFEFF0000
(1543689814.226173) can0 281#19C8000000000000
(1543689814.226368) can0 381#E7FFBA18CAFF
(1543689814.226596) can0 481#00000596000000
(1543689814.364494) can0 080#00
(1543689814.364691) can0 181#0800EDBFFEFF0000
(1543689814.364934) can0 281#19C8000000000000
(1543689814.365185) can0 381#E7FFBA18CAFF
(1543689814.365388) can0 481#00000538020000
(1543689814.507756) can0 080#00
(1543689814.507953) can0 181#0800EDBFFEFF0000
(1543689814.508178) can0 281#19C8000000000000
(1543689814.508372) can0 381#E7FFBA18CAFF
(1543689814.508597) can0 481#000005F9F6FFFF
(1543689814.647905) can0 080#00
(1543689814.648103) can0 181#0800B3BFFEFF0000
(1543689814.648343) can0 281#19C8000000000000
(1543689814.648538) can0 381#E5FFBA18CAFF
(1543689814.648765) can0 481#00000596000000
(1543689814.790126) can0 080#00
(1543689814.790311) can0 181#0800EBBFFEFF0000
(1543689814.790608) can0 281#19C8000000000000
(1543689814.790734) can0 381#E7FF7AF5CAFF
(1543689814.790964) can0 481#00000596000000
(1543689814.928734) can0 080#00
(1543689814.928913) can0 181#0800ECBFFEFF0000
(1543689814.929175) can0 281#19C8000000000000
(1543689814.929364) can0 381#E8FFBA18CAFF
(1543689814.929590) can0 481#00000550FFFFFF
(1543689815.068474) can0 080#00
(1543689815.068661) can0 181#0800EDBFFEFF0000
(1543689815.068878) can0 281#19C8000000000000
(1543689815.069072) can0 381#E7FFBA36CAFF
(1543689815.069295) can0 481#00000587010000
(1543689815.211477) can0 080#00
(1543689815.211654) can0 181#0800ECBFFEFF0000
(1543689815.211909) can0 281#19C8000000000000
(1543689815.212097) can0 381#E8FFBA18CAFF
(1543689815.212322) can0 481#000005F9F6FFFF
(1543689815.351485) can0 080#00
(1543689815.351664) can0 181#0800ECBFFEFF0000
(1543689815.351920) can0 281#19C8000000000000
(1543689815.352111) can0 381#E7FFBA18CAFF
(1543689815.352341) can0 481#00000500000000
(1543689815.490716) can0 080#00
(1543689815.490896) can0 181#0800ECBFFEFF0000
(1543689815.491161) can0 281#19C8000000000000
(1543689815.491349) can0 381#E6FFBA18CAFF
(1543689815.491575) can0 481#000005B0000000
(1543689815.632470) can0 080#00
(1543689815.632650) can0 181#0800B0BFFEFF0000
(1543689815.632911) can0 281#19C8000000000000
(1543689815.633103) can0 381#E5FF7AF5CAFF
(1543689815.633331) can0 481#00000596000000
(1543689815.773159) can0 080#00
(1543689815.773336) can0 181#0800B1BFFEFF0000
(1543689815.773601) can0 281#19C8000000000000
(1543689815.773792) can0 381#E8FFBA36CAFF
(1543689815.774015) can0 481#00000587010000
(1543689815.912460) can0 080#00
(1543689815.912637) can0 181#080075BFFEFF0000
(1543689815.912899) can0 281#19C8000000000000
(1543689815.913093) can0 381#E8FF1AE3CAFF
(1543689815.913333) can0 481#00000548F6FFFF
(1543689816.052921) can0 080#00
(1543689816.053097) can0 181#080074BFFEFF0000
(1543689816.053344) can0 281#19C8000000000000
(1543689816.053534) can0 381#E8FF1A2BCAFF
(1543689816.053764) can0 481#00000500000000
(1543689816.192213) can0 080#00
(1543689816.192391) can0 181#080075BFFEFF0000
(1543689816.192651) can0 281#19C8000000000000
(1543689816.192845) can0 381#E5FFBA18CAFF
(1543689816.193074) can0 481#00000596000000
(1543689816.332739) can0 080#00
(1543689816.332918) can0 181#080073BFFEFF0000
(1543689816.333182) can0 281#19C8000000000000
(1543689816.333375) can0 381#E7FFBA18CAFF
(1543689816.333604) can0 481#00000596000000
(1543689816.473176) can0 080#00
(1543689816.473371) can0 181#080073BFFEFF0000
(1543689816.473615) can0 281#19C8000000000000
(1543689816.473810) can0 381#E5FFBA18CAFF
(1543689816.474038) can0 481#00000596000000
(1543689816.611830) can0 080#00
(1543689816.612746) can0 181#0800B0BFFEFF0000
(1543689816.612988) can0 281#19C8000000000000
(1543689816.613190) can0 381#E7FFBA18CAFF
(1543689816.613413) can0 481#0000054E190000
(1543689816.753979) can0 080#00
(1543689816.754158) can0 181#080075BFFEFF0000
(1543689816.754405) can0 281#19C8000000000000
(1543689816.754611) can0 381#E6FFBA18CAFF
(1543689816.754837) can0 481#000005BBFFFFFF
(1543689816.893193) can0 080#00
(1543689816.893901) can0 181#080073BFFEFF0000
(1543689816.894210) can0 281#19C8000000000000
(1543689816.894341) can0 381#E6FFBA18CAFF
(1543689816.894568) can0 481#00000525FFFFFF
(1543689817.032248) can0 080#00
(1543689817.032595) can0 181#080074BFFEFF0000
(1543689817.032717) can0 281#19C8000000000000
(1543689817.032911) can0 381#E6FF1AE3CAFF
(1543689817.033139) can0 481#0000055B000000
(1543689817.175659) can0 080#00
(1543689817.175837) can0 181#080075BFFEFF0000
(1543689817.176088) can0 281#19C8000000000000
(1543689817.176284) can0 381#E7FF7AF5CAFF
(1543689817.176509) can0 481#000005F1000000
(1543689817.317186) can0 080#00
(1543689817.317366) can0 181#080075BFFEFF0000
(1543689817.317606) can0 281#19C8000000000000
(1543689817.317802) can0 381#E7FF7AF5CAFF
(1543689817.318028) can0 481#0000058FF7FFFF
(1543689817.458804) can0 080#00
(1543689817.458983) can0 181#080075BFFEFF0000
(1543689817.459246) can0 281#19C8000000000000
(1543689817.459438) can0 381#E7FFBA36BAFF
(1543689817.459667) can0 481#00000500000000
(1543689817.599172) can0 080#00
(1543689817.599350) can0 181#080038BFFEFF0000
(1543689817.599606) can0 281#19C8000000000000
(1543689817.599798) can0 381#E6FFBA18CAFF
(1543689817.600027) can0 481#00000538020000
(1543689817.739072) can0 080#00
(1543689817.739253) can0 181#080038BFFEFF0000
(1543689817.739513) can0 281#19C8000000000000
(1543689817.739706) can0 381#E5FF7AF5CAFF
(1543689817.739931) can0 481#00000550FFFFFF
(1543689817.879985) can0 080#00
(1543689817.880321) can0 181#080038BFFEFF0000
(1543689817.880475) can0 281#19C8000000000000
(1543689817.880642) can0 381#E7FFBA18CAFF
(1543689817.880869) can0 481#000005F1000000
(1543689818.020187) can0 080#00
(1543689818.020403) can0 181#080039BFFEFF0000
(1543689818.020658) can0 281#19C8000000000000
(1543689818.020853) can0 381#E6FFBA18BAFF
(1543689818.021074) can0 481#000005B9FAFFFF
(1543689818.160630) can0 080#00
(1543689818.160809) can0 181#0800FBBEFEFF0000
(1543689818.161072) can0 281#19C8000000000000
(1543689818.161263) can0 381#E6FF1AE3BAFF
(1543689818.161489) can0 481#00000596000000
(1543689818.300844) can0 080#00
(1543689818.301022) can0 181#0800FDBEFEFF0000
(1543689818.301281) can0 281#19C8000000000000
(1543689818.301468) can0 381#E4FFBA18CAFF
(1543689818.301697) can0 481#00000500000000
(1543689818.439557) can0 080#00
(1543689818.440536) can0 181#0800FDBEFEFF0000
(1543689818.440779) can0 281#19C8000000000000
(1543689818.440977) can0 381#E8FFBA36CAFF
(1543689818.441230) can0 481#000005A2010000
(1543689818.582436) can0 080#00
(1543689818.582615) can0 181#0800FCBEFEFF0000
(1543689818.582882) can0 281#19C8000000000000
(1543689818.583135) can0 381#E7FFBA18BAFF
(1543689818.583334) can0 481#0000056AFFFFFF
(1543689818.723227) can0 080#00
(1543689818.723557) can0 181#0800C0BEFEFF0000
(1543689818.723704) can0 281#19C8000000000000
(1543689818.723875) can0 381#E7FFBA18CAFF
(1543689818.724103) can0 481#0000058FF7FFFF
(1543689818.864606) can0 080#00
(1543689818.864783) can0 181#0800C1BEFEFF0000
(1543689818.865030) can0 281#19C8000000000000
(1543689818.865221) can0 381#E5FF7AF5BAFF
(1543689818.865446) can0 481#00000596000000
(1543689819.006261) can0 080#00
(1543689819.006438) can0 181#0800C1BEFEFF0000
(1543689819.006708) can0 281#19C8000000000000
(1543689819.006902) can0 381#E5FFBA18CAFF
(1543689819.007124) can0 481#00000550FFFFFF
(1543689819.146727) can0 080#00
(1543689819.146850) can0 181#0800BFBEFEFF0000
(1543689819.147073) can0 281#19C8000000000000
(1543689819.147238) can0 381#E5FF7AF5CAFF
(1543689819.147453) can0 481#00000596000000
(1543689819.286079) can0 080#00
(1543689819.286201) can0 181#0800C0BEFEFF0000
(1543689819.286586) can0 281#19C8000000000000
(1543689819.286626) can0 381#E6FF7AF5BAFF
(1543689819.286831) can0 481#00000587010000
(1543689819.426523) can0 080#00
(1543689819.426702) can0 181#0800C0BEFEFF0000
(1543689819.426959) can0 281#19C8000000000000
(1543689819.427149) can0 381#E8FFBA36CAFF
(1543689819.427373) can0 481#000005B9FAFFFF
(1543689819.566270) can0 080#00
(1543689819.566448) can0 181#080083BEFEFF0000
(1543689819.566705) can0 281#19C8000000000000
(1543689819.566894) can0 381#E7FFBA36CAFF
(1543689819.567118) can0 481#0000050C010000
(1543689819.710300) can0 080#00
(1543689819.710480) can0 181#0800C1BEFEFF0000
(1543689819.710723) can0 281#19C8000000000000
(1543689819.710916) can0 381#E8FFBA36CAFF
(1543689819.711143) can0 481#00000500000000
(1543689819.850139) can0 080#00
(1543689819.850369) can0 181#0800BFBEFEFF0000
(1543689819.850625) can0 281#19C8000000000000
(1543689819.850819) can0 381#E9FFBA18CAFF
(1543689819.851045) can0 481#0000056AFFFFFF
(1543689819.990269) can0 080#00
(1543689819.990449) can0 181#080084BEFEFF0000
(1543689819.990705) can0 281#19C8000000000000
(1543689819.990895) can0 381#E5FF7AF5CAFF
(1543689819.991118) can0 481#00000539E4FFFF
(1543689820.130750) can0 080#00
(1543689820.130946) can0 181#080086BEFEFF0000
(1543689820.131185) can0 281#19C8000000000000
(1543689820.131379) can0 381#E8FFBA36CAFF
(1543689820.131603) can0 481#000005B8090000
(1543689820.269541) can0 080#00
(1543689820.269721) can0 181#080084BEFEFF0000
(1543689820.270016) can0 281#19C8000000000000
(1543689820.270204) can0 381#E8FF7AF5BAFF
(1543689820.270378) can0 481#00000500000000
(1543689820.410899) can0 080#00
(1543689820.411094) can0 181#080084BEFEFF0000
(1543689820.411340) can0 281#19C8000000000000
(1543689820.411536) can0 381#E7FFBA18CAFF
(1543689820.411762) can0 481#00000596000000
(1543689820.551518) can0 080#00
(1543689820.551697) can0 181#08000DBEFEFF0000
(1543689820.551958) can0 281#19C8000000000000
(1543689820.552147) can0 381#E9FF7AF5CAFF
(1543689820.552370) can0 481#000005BAFEFFFF
(1543689820.691500) can0 080#00
(1543689820.691696) can0 181#080049BEFEFF0000
(1543689820.691951) can0 281#19C8000000000000
(1543689820.692137) can0 381#E8FFBA18BAFF
(1543689820.692358) can0 481#00000587010000
(1543689820.831025) can0 080#00
(1543689820.831221) can0 181#080048BEFEFF0000
(1543689820.831453) can0 281#19C8000000000000
(1543689820.831643) can0 381#E9FF7AF5CAFF
(1543689820.831869) can0 481#00000508FAFFFF
(1543689820.974758) can0 080#00
(1543689820.974937) can0 181#080048BEFEFF0000
(1543689820.975172) can0 281#19C8000000000000
(1543689820.975362) can0 381#E5FFBA18CAFF
(1543689820.975591) can0 481#00000596000000
(1543689821.126666) can0 080#00
(1543689821.127616) can0 181#080048BEFEFF0000
(1543689821.127845) can0 281#19C8000000000000
(1543689821.128046) can0 381#E7FFBA18CAFF
(1543689821.128274) can0 481#00000500000000
(1543689821.267882) can0 080#00
(1543689821.268205) can0 181#080048BEFEFF0000
(1543689821.268446) can0 281#19C8000000000000
(1543689821.268646) can0 381#E7FFBA18CAFF
(1543689821.268872) can0 481#00000550FFFFFF
(1543689821.408942) can0 080#00
(1543689821.409200) can0 181#080082BEFEFF0000
(1543689821.409444) can0 281#19C8000000000000
(1543689821.409678) can0 381#E7FF9A44CAFF
(1543689821.409875) can0 481#00000596000000
(1543689821.550691) can0 080#00
(1543689821.550920) can0 181#080083BEFEFF0000
(1543689821.551164) can0 281#19C8000000000000
(1543689821.551363) can0 381#E6FFBA18CAFF
(1543689821.551592) can0 481#0000057B000000
(1543689821.704422) can0 080#00
(1543689821.705696) can0 181#080083BEFEFF0000
(1543689821.705882) can0 281#19C8000000000000
(1543689821.706083) can0 381#E7FFBA18BAFF
(1543689821.706310) can0 481#00000596000000
(1543689821.845006) can0 080#00
(1543689821.846948) can0 181#08009DBEFEFF0000
(1543689821.847123) can0 281#19C8000000000000
(1543689821.847148) can0 381#E6FFBA36BAFF
(1543689821.847187) can0 481#00000500000000
(1543689821.988696) can0 080#00
(1543689821.988874) can0 181#080048BEFEFF0000
(1543689821.989142) can0 281#19C8000000000000
(1543689821.989338) can0 381#E7FFBA18CAFF
(1543689821.989562) can0 481#00000546010000
(1543689822.138132) can0 080#00
(1543689822.138253) can0 181#080049BEFEFF0000
(1543689822.138675) can0 281#19C8000000000000
(1543689822.138715) can0 381#E7FFBA36BAFF
(1543689822.138906) can0 481#00000550FFFFFF
(1543689822.283793) can0 080#00
(1543689822.283989) can0 181#08000CBEFEFF0000
(1543689822.284229) can0 281#19C8000000000000
(1543689822.284424) can0 381#E7FFBA18CAFF
(1543689822.284648) can0 481#000005B0000000
(1543689822.425108) can0 080#00
(1543689822.425287) can0 181#08000DBEFEFF0000
(1543689822.425555) can0 281#19C8000000000000
(1543689822.425747) can0 381#E6FFBA36CAFF
(1543689822.425973) can0 481#0000056AFFFFFF
(1543689822.568739) can0 080#00
(1543689822.568918) can0 181#080048BEFEFF0000
(1543689822.569185) can0 281#19C8000000000000
(1543689822.569343) can0 381#E9FF7AF5CAFF
(1543689822.569568) can0 481#0000056AFFFFFF
(1543689822.710092) can0 080#00
(1543689822.710421) can0 181#080047BEFEFF0000
(1543689822.710575) can0 281#19C8000000000000
(1543689822.710745) can0 381#E7FFBA36CAFF
(1543689822.710969) can0 481#00000500000000
(1543689822.850940) can0 080#00
(1543689822.851063) can0 181#080048BEFEFF0000
(1543689822.851265) can0 281#19C8000000000000
(1543689822.851523) can0 381#E5FFBA36CAFF
(1543689822.851684) can0 481#00000500000000
(1543689822.993898) can0 080#00
(1543689822.994572) can0 181#08004BBEFEFF0000
(1543689822.994769) can0 281#19C8000000000000
(1543689822.994976) can0 381#E7FFBA36CAFF
(1543689822.995200) can0 481#000005BAFEFFFF
(1543689823.137164) can0 080#00
(1543689823.137361) can0 181#080084BEFEFF0000
(1543689823.137609) can0 281#19C8000000000000
(1543689823.137798) can0 381#E4FF1AE7CAFF
(1543689823.138019) can0 481#00000550FFFFFF
(1543689823.279513) can0 080#00
(1543689823.279724) can0 181#080085BEFEFF0000
(1543689823.279979) can0 281#19C8000000000000
(1543689823.280171) can0 381#E7FF7AF5CAFF
(1543689823.280397) can0 481#000005A2010000
(1543689823.425065) can0 080#00
(1543689823.425252) can0 181#080049BEFEFF0000
(1543689823.425504) can0 281#19C8000000000000
(1543689823.425697) can0 381#E7FFBA36BAFF
(1543689823.425926) can0 481#00000500000000
(1543689823.566638) can0 080#00
(1543689823.566818) can0 181#08000CBEFEFF0000
(1543689823.567081) can0 281#19C8000000000000
(1543689823.567273) can0 381#E7FFBA36CAFF
(1543689823.567502) can0 481#00000500000000
(1543689823.712243) can0 080#00
(1543689823.713129) can0 181#080047BEFEFF0000
(1543689823.713371) can0 281#19C8000000000000
(1543689823.713569) can0 381#E8FF7AF5CAFF
(1543689823.713796) can0 481#00000500000000
(1543689823.852480) can0 080#00
(1543689823.854429) can0 181#080048BEFEFF0000
(1543689823.854606) can0 281#19C8000000000000
(1543689823.854678) can0 381#E9FFBA18BAFF
(1543689823.854708) can0 481#00000587010000
(1543689823.992759) can0 080#00
(1543689823.994706) can0 181#080046BEFEFF0000
(1543689823.994881) can0 281#19C8000000000000
(1543689823.994925) can0 381#E8FFBA18CAFF
(1543689823.995108) can0 481#000005F9F6FFFF
(1543689824.134445) can0 080#00
(1543689824.134927) can0 181#080048BEFEFF0000
(1543689824.135169) can0 281#19C8000000000000
(1543689824.135366) can0 381#E8FF7AF5CAFF
(1543689824.135593) can0 481#0000056AFFFFFF
(1543689824.275173) can0 080#00
(1543689824.275581) can0 181#080048BEFEFF0000
(1543689824.275822) can0 281#19C8000000000000
(1543689824.276020) can0 381#E8FFBA36CAFF
(1543689824.276252) can0 481#0000056AFFFFFF
(1543689824.418036) can0 080#00
(1543689824.418252) can0 181#080047BEFEFF0000
(1543689824.418572) can0 281#19C8000000000000
(1543689824.418695) can0 381#E6FF1A67BAFF
(1543689824.418930) can0 481#00000500000000
(1543689824.557783) can0 080#00
(1543689824.557961) can0 181#080048BEFEFF0000
(1543689824.558218) can0 281#19C8000000000000
(1543689824.558410) can0 381#E7FF7AF5BAFF
(1543689824.558684) can0 481#000005A2010000
(1543689824.699542) can0 080#00
(1543689824.699721) can0 181#080048BEFEFF0000
(1543689824.699981) can0 281#19C8000000000000
(1543689824.700170) can0 381#E8FF9A44BAFF
(1543689824.700395) can0 481#0000058FD9FFFF
(1543689824.842554) can0 080#00
(1543689824.842733) can0 181#08001EBEFEFF0000
(1543689824.843000) can0 281#19C8000000000000
(1543689824.843188) can0 381#E5FFBA36CAFF
(1543689824.843411) can0 481#00000550FFFFFF
(1543689824.982911) can0 080#00
(1543689824.983053) can0 181#080048BEFEFF0000
(1543689824.983183) can0 281#19C8000000000000
(1543689824.983432) can0 381#E8FF7AF5CAFF
(1543689824.983599) can0 481#00000550FFFFFF
(1543689825.123128) can0 080#00
(1543689825.123314) can0 181#080048BEFEFF0000
(1543689825.123563) can0 281#19C8000000000000
(1543689825.123750) can0 381#E5FFBA18BAFF
(1543689825.123972) can0 481#00000546010000
(1543689825.270292) can0 080#00
(1543689825.270472) can0 181#080048BEFEFF0000
(1543689825.270737) can0 281#19C8000000000000
(1543689825.270926) can0 381#E5FFBA18CAFF
(1543689825.271152) can0 481#0000056AFFFFFF
(1543689825.417105) can0 080#00
(1543689825.417323) can0 181#080048BEFEFF0000
(1543689825.417578) can0 281#19C8000000000000
(1543689825.417772) can0 381#E6FFBA18DAFF
(1543689825.417995) can0 481#0000055C010000
(1543689825.561698) can0 080#00
(1543689825.561877) can0 181#080049BEFEFF0000
(1543689825.562145) can0 281#19C8000000000000
(1543689825.562340) can0 381#E7FF7AF5CAFF
(1543689825.562570) can0 481#000005EF010000
(1543689825.704492) can0 080#00
(1543689825.704995) can0 181#08004ABEFEFF0000
(1543689825.705236) can0 281#19C8000000000000
(1543689825.705437) can0 381#E7FF7AF5CAFF
(1543689825.705670) can0 481#00000500000000
(1543689825.845351) can0 080#00
(1543689825.845616) can0 181#080047BEFEFF0000
(1543689825.845857) can0 281#19C8000000000000
(1543689825.846055) can0 381#E7FF1AA7BAFF
(1543689825.846283) can0 481#000005B0000000
